T42F8 000:013.529   SEGGER J-Link V8.72a Log File
T42F8 000:013.754   DLL Compiled: Sep 25 2025 17:19:12
T42F8 000:013.762   Logging started @ 2026-04-30 14:50
T42F8 000:013.768   Process: D:\Keil5\UV4\UV4.exe
T42F8 000:013.788 - 13.778ms 
T42F8 000:013.802 JLINK_SetWarnOutHandler(...)
T42F8 000:013.810 - 0.010ms 
T42F8 000:013.820 JLINK_OpenEx(...)
T42F8 000:018.395   Firmware: J-Link V9 compiled Dec  8 2023 20:16:22
T42F8 000:019.068   Firmware: J-Link V9 compiled Dec  8 2023 20:16:22
T42F8 000:019.236   Decompressing FW timestamp took 106 us
T42F8 000:025.146   Hardware: V9.70
T42F8 000:025.178   S/N: 602712620
T42F8 000:025.193   OEM: SEGGER
T42F8 000:025.206   Feature(s): GDB, RDI, FlashBP, FlashDL, JFlash
T42F8 000:025.968   Bootloader: (FW returned invalid version)
T42F8 000:026.844   TELNET listener socket opened on port 19021
T42F8 000:027.179   WEBSRV WEBSRV_Init(): Starting webserver thread(s)
T42F8 000:027.579   WEBSRV Webserver running on local port 19080
T42F8 000:027.918   Looking for J-Link GUI Server exe at: D:\Keil5\ARM\Segger\JLinkGUIServer.exe
T42F8 000:028.320   Looking for J-Link GUI Server exe at: D:\Keil5\JLink_V872a\JLinkGUIServer.exe
T42F8 000:028.376   Forking J-Link GUI Server: D:\Keil5\JLink_V872a\JLinkGUIServer.exe
T42F8 000:035.174   J-Link GUI Server info: "J-Link GUI server V8.72a "
T42F8 000:035.674 - 21.843ms returns "O.K."
T42F8 000:035.736 JLINK_GetEmuCaps()
T42F8 000:035.756 - 0.014ms returns 0xB9FF7BBF
T42F8 000:035.778 JLINK_TIF_GetAvailable(...)
T42F8 000:036.033 - 0.257ms 
T42F8 000:036.056 JLINK_SetErrorOutHandler(...)
T42F8 000:036.067 - 0.011ms 
T42F8 000:036.110 JLINK_ExecCommand("ProjectFile = "D:\CubeMx_Project\CAN_Acceptance_Task\MDK-ARM\JLinkSettings.ini"", ...). 
T42F8 000:052.669   Ref file found at: D:\Keil5\ARM\Segger\JLinkDevices.ref
T42F8 000:052.843   REF file references invalid XML file: D:\Keil5\JLink_V872a\JLinkDevices.xml
T42F8 000:054.487 - 18.376ms returns 0x00
T42F8 000:054.585 JLINK_ExecCommand("Device = STM32F407IGHx", ...). 
T42F8 000:056.816   Device "STM32F407IG" selected.
T42F8 000:057.788 - 3.189ms returns 0x00
T42F8 000:057.823 JLINK_ExecCommand("DisableConnectionTimeout", ...). 
T42F8 000:057.851   ERROR: Unknown command
T42F8 000:057.868 - 0.032ms returns 0x01
T42F8 000:057.885 JLINK_GetHardwareVersion()
T42F8 000:057.902 - 0.015ms returns 97000
T42F8 000:057.916 JLINK_GetDLLVersion()
T42F8 000:057.927 - 0.011ms returns 87201
T42F8 000:057.944 JLINK_GetOEMString(...)
T42F8 000:057.958 JLINK_GetFirmwareString(...)
T42F8 000:057.970 - 0.012ms 
T42F8 000:058.030 JLINK_GetDLLVersion()
T42F8 000:058.041 - 0.011ms returns 87201
T42F8 000:058.054 JLINK_GetCompileDateTime()
T42F8 000:058.065 - 0.011ms 
T42F8 000:058.088 JLINK_GetFirmwareString(...)
T42F8 000:058.099 - 0.010ms 
T42F8 000:058.121 JLINK_GetHardwareVersion()
T42F8 000:058.132 - 0.011ms returns 97000
T42F8 000:058.144 JLINK_GetSN()
T42F8 000:058.150 - 0.006ms returns 602712620
T42F8 000:058.161 JLINK_GetOEMString(...)
T42F8 000:058.181 JLINK_TIF_Select(JLINKARM_TIF_SWD)
T42F8 000:058.847 - 0.669ms returns 0x00
T42F8 000:058.874 JLINK_HasError()
T42F8 000:058.895 JLINK_SetSpeed(5000)
T42F8 000:059.035 - 0.141ms 
T42F8 000:059.056 JLINK_GetId()
T42F8 000:059.305   InitTarget() start
T42F8 000:059.324    J-Link Script File: Executing InitTarget()
T42F8 000:059.497   SWD selected. Executing JTAG -> SWD switching sequence.
T42F8 000:060.961   DAP initialized successfully.
T42F8 000:064.810   InitTarget() end - Took 5.47ms
T42F8 000:065.262   Found SW-DP with ID 0x2BA01477
T42F8 000:066.933   DPIDR: 0x2BA01477
T42F8 000:066.960   CoreSight SoC-400 or earlier
T42F8 000:066.977   Scanning AP map to find all available APs
T42F8 000:067.571   AP[1]: Stopped AP scan as end of AP map has been reached
T42F8 000:067.597   AP[0]: AHB-AP (IDR: 0x24770011, ADDR: 0x00000000)
T42F8 000:067.615   Iterating through AP map to find AHB-AP to use
T42F8 000:068.376   AP[0]: Core found
T42F8 000:068.395   AP[0]: AHB-AP ROM base: 0xE00FF000
T42F8 000:068.740   CPUID register: 0x410FC241. Implementer code: 0x41 (ARM)
T42F8 000:068.833   Found Cortex-M4 r0p1, Little endian.
T42F8 000:069.197   -- Max. mem block: 0x00010C20
T42F8 000:069.544   CPU_ReadMem(4 bytes @ 0xE000EDF0)
T42F8 000:069.853   CPU_ReadMem(4 bytes @ 0xE0002000)
T42F8 000:070.223   FPUnit: 6 code (BP) slots and 2 literal slots
T42F8 000:070.246   CPU_ReadMem(4 bytes @ 0xE000EDFC)
T42F8 000:070.520   CPU_WriteMem(4 bytes @ 0xE000EDFC)
T42F8 000:070.817   CPU_ReadMem(4 bytes @ 0xE0001000)
T42F8 000:071.087   CPU_WriteMem(4 bytes @ 0xE0001000)
T42F8 000:071.337   CPU_ReadMem(4 bytes @ 0xE000ED88)
T42F8 000:071.568   CPU_WriteMem(4 bytes @ 0xE000ED88)
T42F8 000:071.804   CPU_ReadMem(4 bytes @ 0xE000ED88)
T42F8 000:072.050   CPU_WriteMem(4 bytes @ 0xE000ED88)
T42F8 000:072.366   CoreSight components:
T42F8 000:072.382   ROMTbl[0] @ E00FF000
T42F8 000:072.390   CPU_ReadMem(64 bytes @ 0xE00FF000)
T42F8 000:072.864   CPU_ReadMem(32 bytes @ 0xE000EFE0)
T42F8 000:073.266   [0][0]: E000E000 CID B105E00D PID 000BB00C SCS-M7
T42F8 000:073.288   CPU_ReadMem(32 bytes @ 0xE0001FE0)
T42F8 000:073.677   [0][1]: E0001000 CID B105E00D PID 003BB002 DWT
T42F8 000:073.689   CPU_ReadMem(32 bytes @ 0xE0002FE0)
T42F8 000:074.041   [0][2]: E0002000 CID B105E00D PID 002BB003 FPB
T42F8 000:074.053   CPU_ReadMem(32 bytes @ 0xE0000FE0)
T42F8 000:074.541   [0][3]: E0000000 CID B105E00D PID 003BB001 ITM
T42F8 000:074.564   CPU_ReadMem(32 bytes @ 0xE0040FE0)
T42F8 000:075.070   [0][4]: E0040000 CID B105900D PID 000BB9A1 TPIU
T42F8 000:075.115   CPU_ReadMem(32 bytes @ 0xE0041FE0)
T42F8 000:075.499   [0][5]: E0041000 CID B105900D PID 000BB925 ETM
T42F8 000:075.737 - 16.681ms returns 0x2BA01477
T42F8 000:075.778 JLINK_GetDLLVersion()
T42F8 000:075.784 - 0.005ms returns 87201
T42F8 000:075.793 JLINK_CORE_GetFound()
T42F8 000:075.800 - 0.007ms returns 0xE0000FF
T42F8 000:075.809 JLINK_GetDebugInfo(0x100 = JLINKARM_ROM_TABLE_ADDR_INDEX)
T42F8 000:075.815   Value=0xE00FF000
T42F8 000:075.822 - 0.013ms returns 0
T42F8 000:075.841 JLINK_GetDebugInfo(0x100 = JLINKARM_ROM_TABLE_ADDR_INDEX)
T42F8 000:075.846   Value=0xE00FF000
T42F8 000:075.852 - 0.011ms returns 0
T42F8 000:075.858 JLINK_GetDebugInfo(0x101 = JLINKARM_DEBUG_INFO_ETM_ADDR_INDEX)
T42F8 000:075.863   Value=0xE0041000
T42F8 000:075.869 - 0.011ms returns 0
T42F8 000:075.970 JLINK_ReadMemEx(0xE0041FD0, 0x20 Bytes, Flags = 0x02000004)
T42F8 000:076.039   CPU_ReadMem(32 bytes @ 0xE0041FD0)
T42F8 000:076.456   Data:  04 00 00 00 00 00 00 00 00 00 00 00 00 00 00 00 ...
T42F8 000:076.465 - 0.495ms returns 32 (0x20)
T42F8 000:076.471 JLINK_GetDebugInfo(0x102 = JLINKARM_DEBUG_INFO_MTB_ADDR_INDEX)
T42F8 000:076.476   Value=0x00000000
T42F8 000:076.483 - 0.011ms returns 0
T42F8 000:076.489 JLINK_GetDebugInfo(0x103 = JLINKARM_DEBUG_INFO_TPIU_ADDR_INDEX)
T42F8 000:076.493   Value=0xE0040000
T42F8 000:076.500 - 0.011ms returns 0
T42F8 000:076.506 JLINK_GetDebugInfo(0x104 = JLINKARM_DEBUG_INFO_ITM_ADDR_INDEX)
T42F8 000:076.511   Value=0xE0000000
T42F8 000:076.518 - 0.012ms returns 0
T42F8 000:076.524 JLINK_GetDebugInfo(0x105 = JLINKARM_DEBUG_INFO_DWT_ADDR_INDEX)
T42F8 000:076.529   Value=0xE0001000
T42F8 000:076.535 - 0.011ms returns 0
T42F8 000:076.541 JLINK_GetDebugInfo(0x106 = JLINKARM_DEBUG_INFO_FPB_ADDR_INDEX)
T42F8 000:076.546   Value=0xE0002000
T42F8 000:076.553 - 0.011ms returns 0
T42F8 000:076.559 JLINK_GetDebugInfo(0x107 = JLINKARM_DEBUG_INFO_NVIC_ADDR_INDEX)
T42F8 000:076.563   Value=0xE000E000
T42F8 000:076.570 - 0.012ms returns 0
T42F8 000:076.576 JLINK_GetDebugInfo(0x10C = JLINKARM_DEBUG_INFO_DBG_ADDR_INDEX)
T42F8 000:076.581   Value=0xE000EDF0
T42F8 000:076.587 - 0.011ms returns 0
T42F8 000:076.594 JLINK_GetDebugInfo(0x01 = Unknown)
T42F8 000:076.598   Value=0x00000001
T42F8 000:076.605 - 0.011ms returns 0
T42F8 000:076.611 JLINK_ReadMemU32(0xE000ED00, 0x1 Items)
T42F8 000:076.620   CPU_ReadMem(4 bytes @ 0xE000ED00)
T42F8 000:076.893   Data:  41 C2 0F 41
T42F8 000:076.916   Debug reg: CPUID
T42F8 000:076.930 - 0.318ms returns 1 (0x1)
T42F8 000:076.949 JLINK_GetDebugInfo(0x10F = JLINKARM_DEBUG_INFO_HAS_CORTEX_M_SECURITY_EXT_INDEX)
T42F8 000:076.960   Value=0x00000000
T42F8 000:076.971 - 0.023ms returns 0
T42F8 000:076.981 JLINK_HasError()
T42F8 000:076.993 JLINK_SetResetType(JLINKARM_CM3_RESET_TYPE_NORMAL)
T42F8 000:077.002 - 0.009ms returns JLINKARM_CM3_RESET_TYPE_NORMAL
T42F8 000:077.012 JLINK_Reset()
T42F8 000:077.030   JLINK_GetResetTypeDesc
T42F8 000:077.039   - 0.009ms 
T42F8 000:077.069   Reset type: NORMAL (https://wiki.segger.com/J-Link_Reset_Strategies)
T42F8 000:077.082   CPU is running
T42F8 000:077.095   CPU_WriteMem(4 bytes @ 0xE000EDF0)
T42F8 000:077.384   CPU is running
T42F8 000:077.397   CPU_WriteMem(4 bytes @ 0xE000EDFC)
T42F8 000:077.647   Reset: Halt core after reset via DEMCR.VC_CORERESET.
T42F8 000:077.934   Reset: Reset device via AIRCR.SYSRESETREQ.
T42F8 000:077.949   CPU is running
T42F8 000:077.958   CPU_WriteMem(4 bytes @ 0xE000ED0C)
T42F8 000:131.998   CPU_ReadMem(4 bytes @ 0xE000EDF0)
T42F8 000:132.327   CPU_ReadMem(4 bytes @ 0xE000EDF0)
T42F8 000:134.673   CPU_WriteMem(4 bytes @ 0xE000EDFC)
T42F8 000:141.385   CPU_ReadMem(4 bytes @ 0xE000EDF0)
T42F8 000:144.453   CPU_WriteMem(4 bytes @ 0xE0002000)
T42F8 000:145.068   CPU_ReadMem(4 bytes @ 0xE000EDFC)
T42F8 000:145.492   CPU_ReadMem(4 bytes @ 0xE0001000)
T42F8 000:145.916 - 68.903ms 
T42F8 000:145.985 JLINK_HasError()
T42F8 000:145.998 JLINK_ReadReg(R15 (PC))
T42F8 000:146.013 - 0.015ms returns 0x08000254
T42F8 000:146.026 JLINK_ReadReg(XPSR)
T42F8 000:146.035 - 0.008ms returns 0x01000000
T42F8 000:146.048 JLINK_Halt()
T42F8 000:146.056 - 0.007ms returns 0x00
T42F8 000:146.069 JLINK_ReadMemU32(0xE000EDF0, 0x1 Items)
T42F8 000:146.086   CPU_ReadMem(4 bytes @ 0xE000EDF0)
T42F8 000:146.403   Data:  03 00 03 00
T42F8 000:146.428   Debug reg: DHCSR
T42F8 000:146.439 - 0.370ms returns 1 (0x1)
T42F8 000:146.471 JLINK_WriteU32(0xE000EDF0, 0xA05F0003)
T42F8 000:146.479   Debug reg: DHCSR
T42F8 000:146.917   CPU_WriteMem(4 bytes @ 0xE000EDF0)
T42F8 000:147.264 - 0.802ms returns 0 (0x00000000)
T42F8 000:147.294 JLINK_WriteU32(0xE000EDFC, 0x01000000)
T42F8 000:147.300   Debug reg: DEMCR
T42F8 000:147.311   CPU_WriteMem(4 bytes @ 0xE000EDFC)
T42F8 000:147.615 - 0.320ms returns 0 (0x00000000)
T42F8 000:147.758 JLINK_GetHWStatus(...)
T42F8 000:147.930 - 0.171ms returns 0
T42F8 000:147.991 JLINK_GetNumBPUnits(Type = 0xFFFFFF00)
T42F8 000:148.001 - 0.010ms returns 0x06
T42F8 000:148.011 JLINK_GetNumBPUnits(Type = 0xF0)
T42F8 000:148.020 - 0.008ms returns 0x2000
T42F8 000:148.029 JLINK_GetNumWPUnits()
T42F8 000:148.038 - 0.008ms returns 4
T42F8 000:148.061 JLINK_GetSpeed()
T42F8 000:148.068 - 0.008ms returns 4000
T42F8 000:148.085 JLINK_ReadMemU32(0xE000E004, 0x1 Items)
T42F8 000:148.100   CPU_ReadMem(4 bytes @ 0xE000E004)
T42F8 000:148.344   Data:  02 00 00 00
T42F8 000:148.357 - 0.272ms returns 1 (0x1)
T42F8 000:148.369 JLINK_ReadMemU32(0xE000E004, 0x1 Items)
T42F8 000:148.379   CPU_ReadMem(4 bytes @ 0xE000E004)
T42F8 000:148.597   Data:  02 00 00 00
T42F8 000:148.610 - 0.241ms returns 1 (0x1)
T42F8 000:148.623 JLINK_WriteMemEx(0xE0001000, 0x0000001C Bytes, Flags = 0x02000004)
T42F8 000:148.631   Data:  01 00 00 00 00 00 00 00 00 00 00 00 00 00 00 00 ...
T42F8 000:148.651   CPU_WriteMem(28 bytes @ 0xE0001000)
T42F8 000:149.011 - 0.389ms returns 0x1C
T42F8 000:149.028 JLINK_HasError()
T42F8 000:149.035 JLINK_ReadReg(R15 (PC))
T42F8 000:149.042 - 0.006ms returns 0x08000254
T42F8 000:149.048 JLINK_ReadReg(XPSR)
T42F8 000:149.053 - 0.005ms returns 0x01000000
T42F8 000:153.088 JLINK_ReadMemEx(0xE0001004, 0x4 Bytes, Flags = 0x02000000)
T42F8 000:153.108   Data:  00 00 00 00
T42F8 000:153.116   Debug reg: DWT_CYCCNT
T42F8 000:153.123 - 0.035ms returns 4 (0x4)
T42F8 000:222.909 JLINK_HasError()
T42F8 000:222.962 JLINK_SetResetType(JLINKARM_CM3_RESET_TYPE_NORMAL)
T42F8 000:222.971 - 0.009ms returns JLINKARM_CM3_RESET_TYPE_NORMAL
T42F8 000:222.979 JLINK_Reset()
T42F8 000:223.000   JLINK_GetResetTypeDesc
T42F8 000:223.017   - 0.017ms 
T42F8 000:223.048   Reset type: NORMAL (https://wiki.segger.com/J-Link_Reset_Strategies)
T42F8 000:223.060   CPU_WriteMem(4 bytes @ 0xE000EDF0)
T42F8 000:223.416   CPU_WriteMem(4 bytes @ 0xE000EDFC)
T42F8 000:223.751   Reset: Halt core after reset via DEMCR.VC_CORERESET.
T42F8 000:224.191   Reset: Reset device via AIRCR.SYSRESETREQ.
T42F8 000:224.200   CPU_WriteMem(4 bytes @ 0xE000ED0C)
T42F8 000:277.965   CPU_ReadMem(4 bytes @ 0xE000EDF0)
T42F8 000:278.349   CPU_ReadMem(4 bytes @ 0xE000EDF0)
T42F8 000:278.626   CPU_WriteMem(4 bytes @ 0xE000EDFC)
T42F8 000:284.800   CPU_ReadMem(4 bytes @ 0xE000EDF0)
T42F8 000:287.322   CPU_WriteMem(4 bytes @ 0xE0002000)
T42F8 000:287.665   CPU_ReadMem(4 bytes @ 0xE000EDFC)
T42F8 000:287.990   CPU_ReadMem(4 bytes @ 0xE0001000)
T42F8 000:288.354 - 65.372ms 
T42F8 000:288.595 JLINK_HasError()
T42F8 000:288.621 JLINK_ReadReg(R15 (PC))
T42F8 000:288.651 - 0.028ms returns 0x08000254
T42F8 000:288.670 JLINK_ReadReg(XPSR)
T42F8 000:288.685 - 0.014ms returns 0x01000000
T42F8 000:289.428 JLINK_ReadMemEx(0x08000254, 0x3C Bytes, Flags = 0x02000000)
T42F8 000:289.451   CPU_ReadMem(128 bytes @ 0x08000240)
T42F8 000:290.265    -- Updating C cache (128 bytes @ 0x08000240)
T42F8 000:290.283    -- Read from C cache (60 bytes @ 0x08000254)
T42F8 000:290.293   Data:  09 48 80 47 09 48 00 47 FE E7 FE E7 FE E7 FE E7 ...
T42F8 000:290.302 - 0.873ms returns 60 (0x3C)
T42F8 000:290.310 JLINK_ReadMemEx(0x08000254, 0x2 Bytes, Flags = 0x02000000)
T42F8 000:290.317    -- Read from C cache (2 bytes @ 0x08000254)
T42F8 000:290.324   Data:  09 48
T42F8 000:290.331 - 0.021ms returns 2 (0x2)
T42F8 000:290.426 JLINK_ReadMemEx(0x08000256, 0x2 Bytes, Flags = 0x02000000)
T42F8 000:290.432    -- Read from C cache (2 bytes @ 0x08000256)
T42F8 000:290.440   Data:  80 47
T42F8 000:290.447 - 0.021ms returns 2 (0x2)
T42F8 000:290.465 JLINK_ReadMemEx(0x08000256, 0x2 Bytes, Flags = 0x02000000)
T42F8 000:290.471    -- Read from C cache (2 bytes @ 0x08000256)
T42F8 000:290.478   Data:  80 47
T42F8 000:290.485 - 0.020ms returns 2 (0x2)
T42F8 000:290.492 JLINK_ReadMemEx(0x08000258, 0x3C Bytes, Flags = 0x02000000)
T42F8 000:290.497    -- Read from C cache (60 bytes @ 0x08000258)
T42F8 000:290.505   Data:  09 48 00 47 FE E7 FE E7 FE E7 FE E7 FE E7 FE E7 ...
T42F8 000:290.512 - 0.020ms returns 60 (0x3C)
T42F8 000:290.518 JLINK_ReadMemEx(0x08000258, 0x2 Bytes, Flags = 0x02000000)
T42F8 000:290.523    -- Read from C cache (2 bytes @ 0x08000258)
T42F8 000:290.530   Data:  09 48
T42F8 000:290.537 - 0.019ms returns 2 (0x2)
T42F8 001:906.212 JLINK_HasError()
T42F8 001:906.279 JLINK_ReadReg(R0)
T42F8 001:906.616 - 0.337ms returns 0x00000000
T42F8 001:906.634 JLINK_ReadReg(R1)
T42F8 001:906.642 - 0.008ms returns 0x00000000
T42F8 001:906.648 JLINK_ReadReg(R2)
T42F8 001:906.654 - 0.005ms returns 0x00000000
T42F8 001:906.659 JLINK_ReadReg(R3)
T42F8 001:906.664 - 0.005ms returns 0x00000000
T42F8 001:906.670 JLINK_ReadReg(R4)
T42F8 001:906.676 - 0.005ms returns 0x00000000
T42F8 001:906.681 JLINK_ReadReg(R5)
T42F8 001:906.686 - 0.004ms returns 0x00000000
T42F8 001:906.692 JLINK_ReadReg(R6)
T42F8 001:906.697 - 0.004ms returns 0x00000000
T42F8 001:906.702 JLINK_ReadReg(R7)
T42F8 001:906.707 - 0.004ms returns 0x00000000
T42F8 001:906.721 JLINK_ReadReg(R8)
T42F8 001:906.726 - 0.012ms returns 0x00000000
T42F8 001:906.732 JLINK_ReadReg(R9)
T42F8 001:906.738 - 0.006ms returns 0x00000000
T42F8 001:906.743 JLINK_ReadReg(R10)
T42F8 001:906.748 - 0.005ms returns 0x00000000
T42F8 001:906.754 JLINK_ReadReg(R11)
T42F8 001:906.759 - 0.004ms returns 0x00000000
T42F8 001:906.765 JLINK_ReadReg(R12)
T42F8 001:906.770 - 0.004ms returns 0x00000000
T42F8 001:906.776 JLINK_ReadReg(R13 (SP))
T42F8 001:906.782 - 0.006ms returns 0x200007D0
T42F8 001:906.788 JLINK_ReadReg(R14)
T42F8 001:906.792 - 0.004ms returns 0xFFFFFFFF
T42F8 001:906.799 JLINK_ReadReg(R15 (PC))
T42F8 001:906.804 - 0.005ms returns 0x08000254
T42F8 001:906.810 JLINK_ReadReg(XPSR)
T42F8 001:906.814 - 0.004ms returns 0x01000000
T42F8 001:906.914 JLINK_ReadReg(MSP)
T42F8 001:906.922 - 0.007ms returns 0x200007D0
T42F8 001:906.928 JLINK_ReadReg(PSP)
T42F8 001:906.932 - 0.004ms returns 0x00000000
T42F8 001:906.938 JLINK_ReadReg(CFBP)
T42F8 001:906.943 - 0.004ms returns 0x00000000
T42F8 001:906.949 JLINK_ReadReg(FPSCR)
T42F8 001:909.897 - 2.947ms returns 0x00000000
T42F8 001:909.935 JLINK_ReadReg(FPS0)
T42F8 001:909.947 - 0.011ms returns 0x00000000
T42F8 001:909.957 JLINK_ReadReg(FPS1)
T42F8 001:909.966 - 0.008ms returns 0x00000000
T42F8 001:909.975 JLINK_ReadReg(FPS2)
T42F8 001:909.983 - 0.008ms returns 0x00000000
T42F8 001:909.993 JLINK_ReadReg(FPS3)
T42F8 001:910.001 - 0.008ms returns 0x00000000
T42F8 001:910.011 JLINK_ReadReg(FPS4)
T42F8 001:910.019 - 0.008ms returns 0x00000000
T42F8 001:910.028 JLINK_ReadReg(FPS5)
T42F8 001:910.036 - 0.008ms returns 0x00000000
T42F8 001:910.046 JLINK_ReadReg(FPS6)
T42F8 001:910.054 - 0.008ms returns 0x00000000
T42F8 001:910.064 JLINK_ReadReg(FPS7)
T42F8 001:910.072 - 0.008ms returns 0x00000000
T42F8 001:910.081 JLINK_ReadReg(FPS8)
T42F8 001:910.089 - 0.007ms returns 0x00000000
T42F8 001:910.098 JLINK_ReadReg(FPS9)
T42F8 001:910.107 - 0.008ms returns 0x00000000
T42F8 001:910.116 JLINK_ReadReg(FPS10)
T42F8 001:910.124 - 0.007ms returns 0x00000000
T42F8 001:910.134 JLINK_ReadReg(FPS11)
T42F8 001:910.142 - 0.008ms returns 0x00000000
T42F8 001:910.152 JLINK_ReadReg(FPS12)
T42F8 001:910.160 - 0.008ms returns 0x00000000
T42F8 001:910.170 JLINK_ReadReg(FPS13)
T42F8 001:910.178 - 0.008ms returns 0x00000000
T42F8 001:910.196 JLINK_ReadReg(FPS14)
T42F8 001:910.204 - 0.008ms returns 0x00000000
T42F8 001:910.213 JLINK_ReadReg(FPS15)
T42F8 001:910.221 - 0.008ms returns 0x00000000
T42F8 001:910.231 JLINK_ReadReg(FPS16)
T42F8 001:910.239 - 0.008ms returns 0x00000000
T42F8 001:910.248 JLINK_ReadReg(FPS17)
T42F8 001:910.257 - 0.008ms returns 0x00000000
T42F8 001:910.266 JLINK_ReadReg(FPS18)
T42F8 001:910.274 - 0.008ms returns 0x00000000
T42F8 001:910.284 JLINK_ReadReg(FPS19)
T42F8 001:910.292 - 0.008ms returns 0x00000000
T42F8 001:910.301 JLINK_ReadReg(FPS20)
T42F8 001:910.310 - 0.008ms returns 0x00000000
T42F8 001:910.319 JLINK_ReadReg(FPS21)
T42F8 001:910.327 - 0.008ms returns 0x00000000
T42F8 001:910.336 JLINK_ReadReg(FPS22)
T42F8 001:910.345 - 0.008ms returns 0x00000000
T42F8 001:910.354 JLINK_ReadReg(FPS23)
T42F8 001:910.362 - 0.008ms returns 0x00000000
T42F8 001:910.372 JLINK_ReadReg(FPS24)
T42F8 001:910.381 - 0.008ms returns 0x00000000
T42F8 001:910.390 JLINK_ReadReg(FPS25)
T42F8 001:910.398 - 0.008ms returns 0x00000000
T42F8 001:910.408 JLINK_ReadReg(FPS26)
T42F8 001:910.416 - 0.008ms returns 0x00000000
T42F8 001:910.426 JLINK_ReadReg(FPS27)
T42F8 001:910.434 - 0.008ms returns 0x00000000
T42F8 001:910.443 JLINK_ReadReg(FPS28)
T42F8 001:910.451 - 0.008ms returns 0x00000000
T42F8 001:910.461 JLINK_ReadReg(FPS29)
T42F8 001:910.469 - 0.007ms returns 0x00000000
T42F8 001:910.478 JLINK_ReadReg(FPS30)
T42F8 001:910.486 - 0.007ms returns 0x00000000
T42F8 001:910.496 JLINK_ReadReg(FPS31)
T42F8 001:910.504 - 0.007ms returns 0x00000000
T41C4 001:954.279 JLINK_ReadMemEx(0x08000254, 0x2 Bytes, Flags = 0x02000000)
T41C4 001:954.342    -- Read from C cache (2 bytes @ 0x08000254)
T41C4 001:954.352   Data:  09 48
T41C4 001:954.364 - 0.084ms returns 2 (0x2)
T41C4 001:954.376 JLINK_HasError()
T41C4 001:954.386 JLINK_SetBPEx(Addr = 0x080020B8, Type = 0xFFFFFFF2)
T41C4 001:954.401 - 0.014ms returns 0x00000001
T41C4 001:954.407 JLINK_HasError()
T41C4 001:954.412 JLINK_HasError()
T41C4 001:954.420 JLINK_Go()
T41C4 001:954.509   CPU_WriteMem(4 bytes @ 0xE0002000)
T41C4 001:954.894   CPU_ReadMem(4 bytes @ 0xE0001000)
T41C4 001:955.181   CPU_WriteMem(4 bytes @ 0xE0002008)
T41C4 001:955.190   CPU_WriteMem(4 bytes @ 0xE000200C)
T41C4 001:955.197   CPU_WriteMem(4 bytes @ 0xE0002010)
T41C4 001:955.204   CPU_WriteMem(4 bytes @ 0xE0002014)
T41C4 001:955.212   CPU_WriteMem(4 bytes @ 0xE0002018)
T41C4 001:955.218   CPU_WriteMem(4 bytes @ 0xE000201C)
T41C4 001:956.206   CPU_WriteMem(4 bytes @ 0xE0001004)
T41C4 001:956.915   Memory map 'after startup completion point' is active
T41C4 001:956.930 - 2.509ms 
T41C4 002:057.007 JLINK_HasError()
T41C4 002:057.076 JLINK_IsHalted()
T41C4 002:058.998 - 1.921ms returns TRUE
T41C4 002:059.021 JLINK_HasError()
T41C4 002:059.032 JLINK_Halt()
T41C4 002:059.040 - 0.008ms returns 0x00
T41C4 002:059.049 JLINK_IsHalted()
T41C4 002:059.057 - 0.007ms returns TRUE
T41C4 002:059.066 JLINK_IsHalted()
T41C4 002:059.075 - 0.008ms returns TRUE
T41C4 002:059.084 JLINK_IsHalted()
T41C4 002:059.091 - 0.007ms returns TRUE
T41C4 002:059.103 JLINK_HasError()
T41C4 002:059.113 JLINK_ReadReg(R15 (PC))
T41C4 002:059.126 - 0.012ms returns 0x080020B8
T41C4 002:059.135 JLINK_ReadReg(XPSR)
T41C4 002:059.143 - 0.008ms returns 0x21000000
T41C4 002:059.155 JLINK_HasError()
T41C4 002:059.165 JLINK_ClrBPEx(BPHandle = 0x00000001)
T41C4 002:059.174 - 0.009ms returns 0x00
T41C4 002:059.183 JLINK_HasError()
T41C4 002:059.192 JLINK_HasError()
T41C4 002:059.202 JLINK_ReadMemU32(0xE000ED30, 0x1 Items)
T41C4 002:059.221   CPU_ReadMem(4 bytes @ 0xE000ED30)
T41C4 002:059.502   Data:  02 00 00 00
T41C4 002:059.516 - 0.314ms returns 1 (0x1)
T41C4 002:059.526 JLINK_ReadMemU32(0xE0001028, 0x1 Items)
T41C4 002:059.537   CPU_ReadMem(4 bytes @ 0xE0001028)
T41C4 002:059.810   Data:  00 00 00 00
T41C4 002:059.824   Debug reg: DWT_FUNC[0]
T41C4 002:059.834 - 0.308ms returns 1 (0x1)
T41C4 002:059.845 JLINK_ReadMemU32(0xE0001038, 0x1 Items)
T41C4 002:059.855   CPU_ReadMem(4 bytes @ 0xE0001038)
T41C4 002:060.171   Data:  00 02 00 00
T41C4 002:060.179   Debug reg: DWT_FUNC[1]
T41C4 002:060.186 - 0.341ms returns 1 (0x1)
T41C4 002:060.192 JLINK_ReadMemU32(0xE0001048, 0x1 Items)
T41C4 002:060.198   CPU_ReadMem(4 bytes @ 0xE0001048)
T41C4 002:060.499   Data:  00 00 00 00
T41C4 002:060.507   Debug reg: DWT_FUNC[2]
T41C4 002:060.514 - 0.322ms returns 1 (0x1)
T41C4 002:060.521 JLINK_ReadMemU32(0xE0001058, 0x1 Items)
T41C4 002:060.526   CPU_ReadMem(4 bytes @ 0xE0001058)
T41C4 002:060.779   Data:  00 00 00 00
T41C4 002:060.787   Debug reg: DWT_FUNC[3]
T41C4 002:060.794 - 0.273ms returns 1 (0x1)
T41C4 002:060.843 JLINK_HasError()
T41C4 002:060.849 JLINK_ReadReg(R0)
T41C4 002:060.855 - 0.005ms returns 0x200001D0
T41C4 002:060.860 JLINK_ReadReg(R1)
T41C4 002:060.865 - 0.005ms returns 0x200003D0
T41C4 002:060.871 JLINK_ReadReg(R2)
T41C4 002:060.876 - 0.004ms returns 0x200003D0
T41C4 002:060.881 JLINK_ReadReg(R3)
T41C4 002:060.886 - 0.004ms returns 0x200003D0
T41C4 002:060.891 JLINK_ReadReg(R4)
T41C4 002:060.896 - 0.004ms returns 0x00000000
T41C4 002:060.902 JLINK_ReadReg(R5)
T41C4 002:060.906 - 0.004ms returns 0x20000010
T41C4 002:060.912 JLINK_ReadReg(R6)
T41C4 002:060.916 - 0.004ms returns 0x00000000
T41C4 002:060.922 JLINK_ReadReg(R7)
T41C4 002:060.926 - 0.004ms returns 0x00000000
T41C4 002:060.932 JLINK_ReadReg(R8)
T41C4 002:060.936 - 0.004ms returns 0x00000000
T41C4 002:060.942 JLINK_ReadReg(R9)
T41C4 002:060.946 - 0.004ms returns 0x00000000
T41C4 002:060.952 JLINK_ReadReg(R10)
T41C4 002:060.956 - 0.004ms returns 0x080021A8
T41C4 002:060.962 JLINK_ReadReg(R11)
T41C4 002:060.967 - 0.004ms returns 0x00000000
T41C4 002:060.972 JLINK_ReadReg(R12)
T41C4 002:060.977 - 0.004ms returns 0x20000050
T41C4 002:060.983 JLINK_ReadReg(R13 (SP))
T41C4 002:060.988 - 0.005ms returns 0x200007D0
T41C4 002:060.993 JLINK_ReadReg(R14)
T41C4 002:060.998 - 0.004ms returns 0x08000243
T41C4 002:061.003 JLINK_ReadReg(R15 (PC))
T41C4 002:061.008 - 0.004ms returns 0x080020B8
T41C4 002:061.013 JLINK_ReadReg(XPSR)
T41C4 002:061.018 - 0.004ms returns 0x21000000
T41C4 002:061.028 JLINK_ReadReg(MSP)
T41C4 002:061.034 - 0.006ms returns 0x200007D0
T41C4 002:061.042 JLINK_ReadReg(PSP)
T41C4 002:061.050 - 0.007ms returns 0x00000000
T41C4 002:061.058 JLINK_ReadReg(CFBP)
T41C4 002:061.066 - 0.007ms returns 0x04000000
T41C4 002:061.074 JLINK_ReadReg(FPSCR)
T41C4 002:064.821 - 3.744ms returns 0x03000000
T41C4 002:064.902 JLINK_ReadReg(FPS0)
T41C4 002:064.928 - 0.026ms returns 0x00000000
T41C4 002:064.941 JLINK_ReadReg(FPS1)
T41C4 002:064.946 - 0.005ms returns 0x00000000
T41C4 002:064.952 JLINK_ReadReg(FPS2)
T41C4 002:064.956 - 0.004ms returns 0x00000000
T41C4 002:064.962 JLINK_ReadReg(FPS3)
T41C4 002:064.967 - 0.004ms returns 0x00000000
T41C4 002:064.972 JLINK_ReadReg(FPS4)
T41C4 002:064.977 - 0.004ms returns 0x00000000
T41C4 002:064.982 JLINK_ReadReg(FPS5)
T41C4 002:064.987 - 0.005ms returns 0x00000000
T41C4 002:064.993 JLINK_ReadReg(FPS6)
T41C4 002:064.998 - 0.004ms returns 0x00000000
T41C4 002:065.004 JLINK_ReadReg(FPS7)
T41C4 002:065.009 - 0.004ms returns 0x00000000
T41C4 002:065.014 JLINK_ReadReg(FPS8)
T41C4 002:065.020 - 0.006ms returns 0x00000000
T41C4 002:065.026 JLINK_ReadReg(FPS9)
T41C4 002:065.030 - 0.004ms returns 0x00000000
T41C4 002:065.036 JLINK_ReadReg(FPS10)
T41C4 002:065.041 - 0.004ms returns 0x00000000
T41C4 002:065.047 JLINK_ReadReg(FPS11)
T41C4 002:065.051 - 0.004ms returns 0x00000000
T41C4 002:065.057 JLINK_ReadReg(FPS12)
T41C4 002:065.061 - 0.004ms returns 0x00000000
T41C4 002:065.067 JLINK_ReadReg(FPS13)
T41C4 002:065.072 - 0.004ms returns 0x00000000
T41C4 002:065.077 JLINK_ReadReg(FPS14)
T41C4 002:065.082 - 0.004ms returns 0x00000000
T41C4 002:065.087 JLINK_ReadReg(FPS15)
T41C4 002:065.092 - 0.004ms returns 0x00000000
T41C4 002:065.097 JLINK_ReadReg(FPS16)
T41C4 002:065.102 - 0.004ms returns 0x00000000
T41C4 002:065.116 JLINK_ReadReg(FPS17)
T41C4 002:065.121 - 0.004ms returns 0x00000000
T41C4 002:065.126 JLINK_ReadReg(FPS18)
T41C4 002:065.131 - 0.004ms returns 0x00000000
T41C4 002:065.137 JLINK_ReadReg(FPS19)
T41C4 002:065.142 - 0.005ms returns 0x00000000
T41C4 002:065.147 JLINK_ReadReg(FPS20)
T41C4 002:065.152 - 0.004ms returns 0x00000000
T41C4 002:065.158 JLINK_ReadReg(FPS21)
T41C4 002:065.162 - 0.004ms returns 0x00000000
T41C4 002:065.168 JLINK_ReadReg(FPS22)
T41C4 002:065.173 - 0.004ms returns 0x00000000
T41C4 002:065.178 JLINK_ReadReg(FPS23)
T41C4 002:065.183 - 0.004ms returns 0x00000000
T41C4 002:065.188 JLINK_ReadReg(FPS24)
T41C4 002:065.193 - 0.004ms returns 0x00000000
T41C4 002:065.198 JLINK_ReadReg(FPS25)
T41C4 002:065.203 - 0.004ms returns 0x00000000
T41C4 002:065.209 JLINK_ReadReg(FPS26)
T41C4 002:065.214 - 0.004ms returns 0x00000000
T41C4 002:065.219 JLINK_ReadReg(FPS27)
T41C4 002:065.224 - 0.004ms returns 0x00000000
T41C4 002:065.229 JLINK_ReadReg(FPS28)
T41C4 002:065.234 - 0.004ms returns 0x00000000
T41C4 002:065.239 JLINK_ReadReg(FPS29)
T41C4 002:065.244 - 0.005ms returns 0x00000000
T41C4 002:065.250 JLINK_ReadReg(FPS30)
T41C4 002:065.255 - 0.004ms returns 0x00000000
T41C4 002:065.260 JLINK_ReadReg(FPS31)
T41C4 002:065.265 - 0.004ms returns 0x00000000
T41C4 279:624.032 JLINK_ReadMemEx(0x080020B8, 0x2 Bytes, Flags = 0x02000000)
T41C4 279:624.128   CPU_ReadMem(64 bytes @ 0x08002080)
T41C4 279:624.768    -- Updating C cache (64 bytes @ 0x08002080)
T41C4 279:624.800    -- Read from C cache (2 bytes @ 0x080020B8)
T41C4 279:624.832   Data:  FE F7
T41C4 279:624.832 - 0.785ms returns 2 (0x2)
T41C4 279:624.864 JLINK_HasError()
T41C4 279:624.864 JLINK_HasError()
T41C4 279:624.864 JLINK_Go()
T41C4 279:625.216   CPU_ReadMem(4 bytes @ 0xE0001000)
T41C4 279:625.568   CPU_WriteMem(4 bytes @ 0xE0002008)
T41C4 279:626.368 - 1.489ms 
T41C4 279:726.688 JLINK_HasError()
T41C4 279:726.752 JLINK_IsHalted()
T41C4 279:727.040 - 0.307ms returns FALSE
T41C4 279:828.128 JLINK_HasError()
T41C4 279:828.192 JLINK_IsHalted()
T41C4 279:828.544 - 0.355ms returns FALSE
T41C4 279:929.664 JLINK_HasError()
T41C4 279:929.696 JLINK_IsHalted()
T41C4 279:930.080 - 0.372ms returns FALSE
T41C4 280:031.232 JLINK_HasError()
T41C4 280:031.296 JLINK_IsHalted()
T41C4 280:031.680 - 0.391ms returns FALSE
T41C4 280:131.904 JLINK_HasError()
T41C4 280:131.968 JLINK_IsHalted()
T41C4 280:132.352 - 0.389ms returns FALSE
T41C4 280:233.120 JLINK_HasError()
T41C4 280:233.184 JLINK_HasError()
T41C4 280:233.184 JLINK_ReadMemU32(0xE0001004, 0x1 Items)
T41C4 280:233.248   CPU_ReadMem(4 bytes @ 0xE0001004)
T41C4 280:233.696   Data:  17 27 11 06
T41C4 280:233.728   Debug reg: DWT_CYCCNT
T41C4 280:233.760 - 0.547ms returns 1 (0x1)
T41C4 280:236.096 JLINK_IsHalted()
T41C4 280:236.320 - 0.242ms returns FALSE
T41C4 280:336.640 JLINK_HasError()
T41C4 280:336.704 JLINK_IsHalted()
T41C4 280:337.120 - 0.439ms returns FALSE
T41C4 280:437.952 JLINK_HasError()
T41C4 280:438.080 JLINK_IsHalted()
T41C4 280:438.464 - 0.412ms returns FALSE
T41C4 280:539.200 JLINK_HasError()
T41C4 280:539.328 JLINK_IsHalted()
T41C4 280:539.840 - 0.544ms returns FALSE
T41C4 280:640.832 JLINK_HasError()
T41C4 280:640.960 JLINK_IsHalted()
T41C4 280:641.408 - 0.437ms returns FALSE
T41C4 280:742.048 JLINK_HasError()
T41C4 280:742.112 JLINK_IsHalted()
T41C4 280:742.528 - 0.418ms returns FALSE
T41C4 280:843.008 JLINK_HasError()
T41C4 280:843.136 JLINK_HasError()
T41C4 280:843.136 JLINK_ReadMemU32(0xE0001004, 0x1 Items)
T41C4 280:843.200   Data:  17 27 11 06
T41C4 280:843.200   Debug reg: DWT_CYCCNT
T41C4 280:843.232 - 0.097ms returns 1 (0x1)
T41C4 280:846.240 JLINK_IsHalted()
T41C4 280:846.656 - 0.415ms returns FALSE
T41C4 280:947.104 JLINK_HasError()
T41C4 280:947.200 JLINK_IsHalted()
T41C4 280:947.648 - 0.460ms returns FALSE
T41C4 281:048.224 JLINK_HasError()
T41C4 281:048.320 JLINK_IsHalted()
T41C4 281:048.800 - 0.486ms returns FALSE
T41C4 281:149.632 JLINK_HasError()
T41C4 281:149.760 JLINK_IsHalted()
T41C4 281:150.048 - 0.325ms returns FALSE
T41C4 281:250.208 JLINK_HasError()
T41C4 281:250.240 JLINK_IsHalted()
T41C4 281:250.624 - 0.384ms returns FALSE
T41C4 281:351.296 JLINK_HasError()
T41C4 281:351.360 JLINK_IsHalted()
T41C4 281:351.776 - 0.399ms returns FALSE
T41C4 281:452.896 JLINK_HasError()
T41C4 281:452.992 JLINK_HasError()
T41C4 281:452.992 JLINK_ReadMemU32(0xE0001004, 0x1 Items)
T41C4 281:453.024   Data:  17 27 11 06
T41C4 281:453.024   Debug reg: DWT_CYCCNT
T41C4 281:453.056 - 0.058ms returns 1 (0x1)
T41C4 281:455.328 JLINK_IsHalted()
T41C4 281:455.808 - 0.461ms returns FALSE
T41C4 281:555.904 JLINK_HasError()
T41C4 281:556.000 JLINK_IsHalted()
T41C4 281:556.320 - 0.333ms returns FALSE
T41C4 281:656.800 JLINK_HasError()
T41C4 281:656.896 JLINK_IsHalted()
T41C4 281:657.344 - 0.458ms returns FALSE
T41C4 281:758.272 JLINK_HasError()
T41C4 281:758.368 JLINK_IsHalted()
T41C4 281:758.656 - 0.326ms returns FALSE
T41C4 281:859.552 JLINK_HasError()
T41C4 281:859.648 JLINK_IsHalted()
T41C4 281:859.968 - 0.339ms returns FALSE
T41C4 281:960.288 JLINK_HasError()
T41C4 281:960.384 JLINK_IsHalted()
T41C4 281:960.704 - 0.331ms returns FALSE
T41C4 282:060.800 JLINK_HasError()
T41C4 282:060.864 JLINK_HasError()
T41C4 282:060.864 JLINK_ReadMemU32(0xE0001004, 0x1 Items)
T41C4 282:060.896   Data:  17 27 11 06
T41C4 282:060.928   Debug reg: DWT_CYCCNT
T41C4 282:060.960 - 0.068ms returns 1 (0x1)
T41C4 282:062.176 JLINK_IsHalted()
T41C4 282:062.592 - 0.407ms returns FALSE
T41C4 282:163.456 JLINK_HasError()
T41C4 282:163.520 JLINK_IsHalted()
T41C4 282:163.968 - 0.422ms returns FALSE
T41C4 282:265.024 JLINK_HasError()
T41C4 282:265.120 JLINK_IsHalted()
T41C4 282:265.632 - 0.504ms returns FALSE
T41C4 282:366.880 JLINK_HasError()
T41C4 282:366.976 JLINK_IsHalted()
T41C4 282:367.456 - 0.482ms returns FALSE
T41C4 282:467.904 JLINK_HasError()
T41C4 282:468.000 JLINK_IsHalted()
T41C4 282:468.320 - 0.352ms returns FALSE
T41C4 282:569.152 JLINK_HasError()
T41C4 282:569.248 JLINK_IsHalted()
T41C4 282:569.568 - 0.333ms returns FALSE
T41C4 282:669.856 JLINK_HasError()
T41C4 282:669.920 JLINK_HasError()
T41C4 282:669.920 JLINK_ReadMemU32(0xE0001004, 0x1 Items)
T41C4 282:669.984   Data:  17 27 11 06
T41C4 282:669.984   Debug reg: DWT_CYCCNT
T41C4 282:670.016 - 0.063ms returns 1 (0x1)
T41C4 282:671.392 JLINK_IsHalted()
T41C4 282:671.776 - 0.375ms returns FALSE
T41C4 282:772.800 JLINK_HasError()
T41C4 282:772.896 JLINK_IsHalted()
T41C4 282:773.312 - 0.437ms returns FALSE
T41C4 282:873.408 JLINK_HasError()
T41C4 282:873.504 JLINK_IsHalted()
T41C4 282:873.856 - 0.350ms returns FALSE
T41C4 282:974.592 JLINK_HasError()
T41C4 282:974.688 JLINK_IsHalted()
T41C4 282:975.808 - 1.101ms returns FALSE
T41C4 283:076.288 JLINK_HasError()
T41C4 283:076.384 JLINK_IsHalted()
T41C4 283:076.800 - 0.401ms returns FALSE
T41C4 283:176.928 JLINK_HasError()
T41C4 283:177.024 JLINK_IsHalted()
T41C4 283:177.376 - 0.361ms returns FALSE
T41C4 283:278.016 JLINK_HasError()
T41C4 283:278.080 JLINK_HasError()
T41C4 283:278.112 JLINK_ReadMemU32(0xE0001004, 0x1 Items)
T41C4 283:278.144   Data:  17 27 11 06
T41C4 283:278.144   Debug reg: DWT_CYCCNT
T41C4 283:278.144 - 0.055ms returns 1 (0x1)
T41C4 283:280.320 JLINK_IsHalted()
T41C4 283:280.800 - 0.453ms returns FALSE
T41C4 283:381.184 JLINK_HasError()
T41C4 283:381.312 JLINK_IsHalted()
T41C4 283:381.696 - 0.419ms returns FALSE
T41C4 283:482.112 JLINK_HasError()
T41C4 283:482.208 JLINK_IsHalted()
T41C4 283:482.592 - 0.385ms returns FALSE
T41C4 283:582.976 JLINK_HasError()
T41C4 283:583.040 JLINK_Halt()
T41C4 283:585.600 - 2.529ms returns 0x00
T41C4 283:585.696 JLINK_IsHalted()
T41C4 283:585.696 - 0.011ms returns TRUE
T41C4 283:585.728 JLINK_IsHalted()
T41C4 283:585.728 - 0.010ms returns TRUE
T41C4 283:585.728 JLINK_IsHalted()
T41C4 283:585.728 - 0.011ms returns TRUE
T41C4 283:585.760 JLINK_HasError()
T41C4 283:585.792 JLINK_ReadReg(R15 (PC))
T41C4 283:585.792 - 0.019ms returns 0x08000EF6
T41C4 283:585.824 JLINK_ReadReg(XPSR)
T41C4 283:585.824 - 0.009ms returns 0x81000000
T41C4 283:585.856 JLINK_HasError()
T41C4 283:585.856 JLINK_HasError()
T41C4 283:585.856 JLINK_ReadMemU32(0xE000ED30, 0x1 Items)
T41C4 283:585.888   CPU_ReadMem(4 bytes @ 0xE000ED30)
T41C4 283:586.336   Data:  01 00 00 00
T41C4 283:586.368 - 0.484ms returns 1 (0x1)
T41C4 283:586.368 JLINK_ReadMemU32(0xE0001028, 0x1 Items)
T41C4 283:586.368   CPU_ReadMem(4 bytes @ 0xE0001028)
T41C4 283:586.752   Data:  00 00 00 00
T41C4 283:586.784   Debug reg: DWT_FUNC[0]
T41C4 283:586.784 - 0.428ms returns 1 (0x1)
T41C4 283:586.816 JLINK_ReadMemU32(0xE0001038, 0x1 Items)
T41C4 283:586.848   CPU_ReadMem(4 bytes @ 0xE0001038)
T41C4 283:587.136   Data:  00 02 00 00
T41C4 283:587.136   Debug reg: DWT_FUNC[1]
T41C4 283:587.136 - 0.329ms returns 1 (0x1)
T41C4 283:587.168 JLINK_ReadMemU32(0xE0001048, 0x1 Items)
T41C4 283:587.200   CPU_ReadMem(4 bytes @ 0xE0001048)
T41C4 283:587.424   Data:  00 00 00 00
T41C4 283:587.456   Debug reg: DWT_FUNC[2]
T41C4 283:587.456 - 0.287ms returns 1 (0x1)
T41C4 283:587.488 JLINK_ReadMemU32(0xE0001058, 0x1 Items)
T41C4 283:587.520   CPU_ReadMem(4 bytes @ 0xE0001058)
T41C4 283:587.776   Data:  00 00 00 00
T41C4 283:587.776   Debug reg: DWT_FUNC[3]
T41C4 283:587.776 - 0.297ms returns 1 (0x1)
T41C4 283:587.904 JLINK_HasError()
T41C4 283:587.904 JLINK_ReadReg(R0)
T41C4 283:587.904 - 0.010ms returns 0x00000F6D
T41C4 283:587.904 JLINK_ReadReg(R1)
T41C4 283:587.936 - 0.008ms returns 0x00000002
T41C4 283:587.936 JLINK_ReadReg(R2)
T41C4 283:587.968 - 0.008ms returns 0x3FE00000
T41C4 283:587.968 JLINK_ReadReg(R3)
T41C4 283:587.968 - 0.008ms returns 0x40006580
T41C4 283:588.000 JLINK_ReadReg(R4)
T41C4 283:588.000 - 0.007ms returns 0x00000002
T41C4 283:588.000 JLINK_ReadReg(R5)
T41C4 283:588.032 - 0.007ms returns 0x00000F6C
T41C4 283:588.032 JLINK_ReadReg(R6)
T41C4 283:588.032 - 0.007ms returns 0x00000000
T41C4 283:588.032 JLINK_ReadReg(R7)
T41C4 283:588.032 - 0.007ms returns 0x00000000
T41C4 283:588.032 JLINK_ReadReg(R8)
T41C4 283:588.064 - 0.008ms returns 0x00000000
T41C4 283:588.064 JLINK_ReadReg(R9)
T41C4 283:588.064 - 0.007ms returns 0x00000000
T41C4 283:588.096 JLINK_ReadReg(R10)
T41C4 283:588.096 - 0.008ms returns 0x080021A8
T41C4 283:588.096 JLINK_ReadReg(R11)
T41C4 283:588.128 - 0.008ms returns 0x00000000
T41C4 283:588.128 JLINK_ReadReg(R12)
T41C4 283:588.160 - 0.008ms returns 0x40006400
T41C4 283:588.160 JLINK_ReadReg(R13 (SP))
T41C4 283:588.160 - 0.008ms returns 0x200007C0
T41C4 283:588.160 JLINK_ReadReg(R14)
T41C4 283:588.160 - 0.007ms returns 0x08000D45
T41C4 283:588.160 JLINK_ReadReg(R15 (PC))
T41C4 283:588.192 - 0.022ms returns 0x08000EF6
T41C4 283:588.224 JLINK_ReadReg(XPSR)
T41C4 283:588.224 - 0.007ms returns 0x81000000
T41C4 283:588.256 JLINK_ReadReg(MSP)
T41C4 283:588.256 - 0.007ms returns 0x200007C0
T41C4 283:588.256 JLINK_ReadReg(PSP)
T41C4 283:588.288 - 0.007ms returns 0x00000000
T41C4 283:588.288 JLINK_ReadReg(CFBP)
T41C4 283:588.288 - 0.007ms returns 0x04000000
T41C4 283:588.288 JLINK_ReadReg(FPSCR)
T41C4 283:591.232 - 2.931ms returns 0x23000010
T41C4 283:591.232 JLINK_ReadReg(FPS0)
T41C4 283:591.264 - 0.011ms returns 0x00004718
T41C4 283:591.264 JLINK_ReadReg(FPS1)
T41C4 283:591.264 - 0.008ms returns 0x00000000
T41C4 283:591.296 JLINK_ReadReg(FPS2)
T41C4 283:591.296 - 0.008ms returns 0x43160000
T41C4 283:591.296 JLINK_ReadReg(FPS3)
T41C4 283:591.328 - 0.008ms returns 0x461C4000
T41C4 283:591.328 JLINK_ReadReg(FPS4)
T41C4 283:591.328 - 0.008ms returns 0x468E3000
T41C4 283:591.360 JLINK_ReadReg(FPS5)
T41C4 283:591.360 - 0.008ms returns 0x00000000
T41C4 283:591.392 JLINK_ReadReg(FPS6)
T41C4 283:591.392 - 0.018ms returns 0xC7435000
T41C4 283:591.424 JLINK_ReadReg(FPS7)
T41C4 283:591.456 - 0.039ms returns 0x00000000
T41C4 283:591.488 JLINK_ReadReg(FPS8)
T41C4 283:591.488 - 0.011ms returns 0x468E3000
T41C4 283:591.488 JLINK_ReadReg(FPS9)
T41C4 283:591.520 - 0.031ms returns 0x00000000
T41C4 283:591.552 JLINK_ReadReg(FPS10)
T41C4 283:591.552 - 0.009ms returns 0x3C23D70A
T41C4 283:591.584 JLINK_ReadReg(FPS11)
T41C4 283:591.584 - 0.009ms returns 0x00000000
T41C4 283:591.584 JLINK_ReadReg(FPS12)
T41C4 283:591.616 - 0.009ms returns 0x47435000
T41C4 283:591.616 JLINK_ReadReg(FPS13)
T41C4 283:591.616 - 0.008ms returns 0x00000000
T41C4 283:591.616 JLINK_ReadReg(FPS14)
T41C4 283:591.616 - 0.009ms returns 0x00000000
T41C4 283:591.648 JLINK_ReadReg(FPS15)
T41C4 283:591.648 - 0.009ms returns 0x00000000
T41C4 283:591.648 JLINK_ReadReg(FPS16)
T41C4 283:591.680 - 0.008ms returns 0x43160000
T41C4 283:591.680 JLINK_ReadReg(FPS17)
T41C4 283:591.680 - 0.008ms returns 0x00000000
T41C4 283:591.712 JLINK_ReadReg(FPS18)
T41C4 283:591.712 - 0.008ms returns 0x00000000
T41C4 283:591.744 JLINK_ReadReg(FPS19)
T41C4 283:591.744 - 0.008ms returns 0x00000000
T41C4 283:591.744 JLINK_ReadReg(FPS20)
T41C4 283:591.744 - 0.008ms returns 0x00000000
T41C4 283:591.744 JLINK_ReadReg(FPS21)
T41C4 283:591.744 - 0.009ms returns 0x00000000
T41C4 283:591.776 JLINK_ReadReg(FPS22)
T41C4 283:591.776 - 0.008ms returns 0x00000000
T41C4 283:591.808 JLINK_ReadReg(FPS23)
T41C4 283:591.808 - 0.009ms returns 0x00000000
T41C4 283:591.808 JLINK_ReadReg(FPS24)
T41C4 283:591.840 - 0.009ms returns 0x00000000
T41C4 283:591.840 JLINK_ReadReg(FPS25)
T41C4 283:591.840 - 0.008ms returns 0x00000000
T41C4 283:591.872 JLINK_ReadReg(FPS26)
T41C4 283:591.872 - 0.009ms returns 0x00000000
T41C4 283:591.872 JLINK_ReadReg(FPS27)
T41C4 283:591.872 - 0.008ms returns 0x00000000
T41C4 283:591.872 JLINK_ReadReg(FPS28)
T41C4 283:591.904 - 0.008ms returns 0x00000000
T41C4 283:591.904 JLINK_ReadReg(FPS29)
T41C4 283:591.904 - 0.008ms returns 0x00000000
T41C4 283:591.936 JLINK_ReadReg(FPS30)
T41C4 283:591.936 - 0.008ms returns 0x00000000
T41C4 283:591.936 JLINK_ReadReg(FPS31)
T41C4 283:591.968 - 0.009ms returns 0x00000000
T42F8 283:593.632 JLINK_ReadMemEx(0x200007CC, 0x4 Bytes, Flags = 0x02000000)
T42F8 283:593.664   CPU_ReadMem(64 bytes @ 0x200007C0)
T42F8 283:594.176    -- Updating C cache (64 bytes @ 0x200007C0)
T42F8 283:594.176    -- Read from C cache (4 bytes @ 0x200007CC)
T42F8 283:594.176   Data:  47 21 00 08
T42F8 283:594.176 - 0.574ms returns 4 (0x4)
T42F8 283:594.400 JLINK_ReadMemEx(0x200007C0, 0x4 Bytes, Flags = 0x02000000)
T42F8 283:594.432    -- Read from C cache (4 bytes @ 0x200007C0)
T42F8 283:594.432   Data:  70 00 00 20
T42F8 283:594.432 - 0.029ms returns 4 (0x4)
T42F8 283:594.432 JLINK_ReadMemEx(0x200007C4, 0x4 Bytes, Flags = 0x02000000)
T42F8 283:594.432    -- Read from C cache (4 bytes @ 0x200007C4)
T42F8 283:594.464   Data:  BC 00 00 20
T42F8 283:594.464 - 0.026ms returns 4 (0x4)
T42F8 283:594.464 JLINK_ReadMemEx(0x200007C8, 0x4 Bytes, Flags = 0x02000000)
T42F8 283:594.496    -- Read from C cache (4 bytes @ 0x200007C8)
T42F8 283:594.496   Data:  00 00 00 00
T42F8 283:594.528 - 0.027ms returns 4 (0x4)
T42F8 283:594.528 JLINK_ReadMemEx(0x200007CC, 0x4 Bytes, Flags = 0x02000000)
T42F8 283:594.528    -- Read from C cache (4 bytes @ 0x200007CC)
T42F8 283:594.528   Data:  47 21 00 08
T42F8 283:594.560 - 0.026ms returns 4 (0x4)
T42F8 283:599.872 JLINK_ReadMemEx(0x08000EF6, 0x2 Bytes, Flags = 0x02000000)
T42F8 283:599.936   CPU_ReadMem(64 bytes @ 0x08000EC0)
T42F8 283:600.448    -- Updating C cache (64 bytes @ 0x08000EC0)
T42F8 283:600.480    -- Read from C cache (2 bytes @ 0x08000EF6)
T42F8 283:600.512   Data:  70 47
T42F8 283:600.512 - 0.628ms returns 2 (0x2)
T42F8 283:600.512 JLINK_ReadMemEx(0x08000EF8, 0x3C Bytes, Flags = 0x02000000)
T42F8 283:600.544   CPU_ReadMem(64 bytes @ 0x08000F00)
T42F8 283:601.024    -- Updating C cache (64 bytes @ 0x08000F00)
T42F8 283:601.024    -- Read from C cache (60 bytes @ 0x08000EF8)
T42F8 283:601.056   Data:  40 F2 00 00 40 F2 CC 11 C2 F2 00 00 C2 F2 00 01 ...
T42F8 283:601.056 - 0.535ms returns 60 (0x3C)
T42F8 283:601.088 JLINK_ReadMemEx(0x08000EF8, 0x2 Bytes, Flags = 0x02000000)
T42F8 283:601.088    -- Read from C cache (2 bytes @ 0x08000EF8)
T42F8 283:601.088   Data:  40 F2
T42F8 283:601.088 - 0.029ms returns 2 (0x2)
T42F8 283:601.120 JLINK_ReadMemEx(0x08000EF8, 0x3C Bytes, Flags = 0x02000000)
T42F8 283:601.120    -- Read from C cache (60 bytes @ 0x08000EF8)
T42F8 283:601.152   Data:  40 F2 00 00 40 F2 CC 11 C2 F2 00 00 C2 F2 00 01 ...
T42F8 283:601.152 - 0.037ms returns 60 (0x3C)
T42F8 283:601.184 JLINK_ReadMemEx(0x08000EF8, 0x2 Bytes, Flags = 0x02000000)
T42F8 283:601.184    -- Read from C cache (2 bytes @ 0x08000EF8)
T42F8 283:601.184   Data:  40 F2
T42F8 283:601.216 - 0.029ms returns 2 (0x2)
T42F8 283:601.216 JLINK_ReadMemEx(0x08000EFA, 0x2 Bytes, Flags = 0x02000000)
T42F8 283:601.216    -- Read from C cache (2 bytes @ 0x08000EFA)
T42F8 283:601.216   Data:  00 00
T42F8 283:601.216 - 0.030ms returns 2 (0x2)
T42F8 283:601.248 JLINK_ReadMemEx(0x08000EFC, 0x3C Bytes, Flags = 0x02000000)
T42F8 283:601.248    -- Read from C cache (60 bytes @ 0x08000EFC)
T42F8 283:601.280   Data:  40 F2 CC 11 C2 F2 00 00 C2 F2 00 01 00 78 0A 68 ...
T42F8 283:601.280 - 0.026ms returns 60 (0x3C)
T42F8 283:601.280 JLINK_ReadMemEx(0x08000EFC, 0x2 Bytes, Flags = 0x02000000)
T42F8 283:601.280    -- Read from C cache (2 bytes @ 0x08000EFC)
T42F8 283:601.312   Data:  40 F2
T42F8 283:601.312 - 0.026ms returns 2 (0x2)
T42F8 283:601.312 JLINK_ReadMemEx(0x08000EFE, 0x2 Bytes, Flags = 0x02000000)
T42F8 283:601.344    -- Read from C cache (2 bytes @ 0x08000EFE)
T42F8 283:601.344   Data:  CC 11
T42F8 283:601.344 - 0.026ms returns 2 (0x2)
T42F8 283:601.344 JLINK_ReadMemEx(0x08000F00, 0x3C Bytes, Flags = 0x02000000)
T42F8 283:601.344    -- Read from C cache (60 bytes @ 0x08000F00)
T42F8 283:601.376   Data:  C2 F2 00 00 C2 F2 00 01 00 78 0A 68 10 44 08 60 ...
T42F8 283:601.376 - 0.026ms returns 60 (0x3C)
T42F8 283:601.376 JLINK_ReadMemEx(0x08000F00, 0x2 Bytes, Flags = 0x02000000)
T42F8 283:601.408    -- Read from C cache (2 bytes @ 0x08000F00)
T42F8 283:601.408   Data:  C2 F2
T42F8 283:601.408 - 0.026ms returns 2 (0x2)
T42F8 283:601.440 JLINK_ReadMemEx(0x08000F02, 0x2 Bytes, Flags = 0x02000000)
T42F8 283:601.440    -- Read from C cache (2 bytes @ 0x08000F02)
T42F8 283:601.440   Data:  00 00
T42F8 283:601.472 - 0.025ms returns 2 (0x2)
T42F8 312:528.576 JLINK_ReadMemEx(0x200000F8, 0x2 Bytes, Flags = 0x02000000)
T42F8 312:528.672   CPU_ReadMem(64 bytes @ 0x200000C0)
T42F8 312:529.248    -- Updating C cache (64 bytes @ 0x200000C0)
T42F8 312:529.280    -- Read from C cache (2 bytes @ 0x200000F8)
T42F8 312:529.280   Data:  00 00
T42F8 312:529.280 - 0.733ms returns 2 (0x2)
T42F8 312:529.312 JLINK_ReadMemEx(0x200000FC, 0x4 Bytes, Flags = 0x02000000)
T42F8 312:529.344    -- Read from C cache (4 bytes @ 0x200000FC)
T42F8 312:529.344   Data:  00 00 00 00
T42F8 312:529.344 - 0.041ms returns 4 (0x4)
T42F8 312:529.344 JLINK_ReadMemEx(0x20000100, 0x4 Bytes, Flags = 0x02000000)
T42F8 312:529.376   CPU_ReadMem(64 bytes @ 0x20000100)
T42F8 312:529.888    -- Updating C cache (64 bytes @ 0x20000100)
T42F8 312:529.888    -- Read from C cache (4 bytes @ 0x20000100)
T42F8 312:529.888   Data:  00 00 00 00
T42F8 312:529.920 - 0.551ms returns 4 (0x4)
T42F8 312:529.920 JLINK_ReadMemEx(0x20000104, 0x1 Bytes, Flags = 0x02000000)
T42F8 312:529.920    -- Read from C cache (1 bytes @ 0x20000104)
T42F8 312:529.952   Data:  00
T42F8 312:529.952 - 0.027ms returns 1 (0x1)
T42F8 312:529.984 JLINK_ReadMemEx(0x20000108, 0x4 Bytes, Flags = 0x02000000)
T42F8 312:529.984    -- Read from C cache (4 bytes @ 0x20000108)
T42F8 312:529.984   Data:  00 00 00 00
T42F8 312:529.984 - 0.026ms returns 4 (0x4)
T42F8 312:529.984 JLINK_ReadMemEx(0x200000F8, 0x2 Bytes, Flags = 0x02000000)
T42F8 312:530.016    -- Read from C cache (2 bytes @ 0x200000F8)
T42F8 312:530.016   Data:  00 00
T42F8 312:530.016 - 0.025ms returns 2 (0x2)
T42F8 312:530.048 JLINK_ReadMemEx(0x200000FC, 0x4 Bytes, Flags = 0x02000000)
T42F8 312:530.048    -- Read from C cache (4 bytes @ 0x200000FC)
T42F8 312:530.048   Data:  00 00 00 00
T42F8 312:530.080 - 0.026ms returns 4 (0x4)
T42F8 312:530.080 JLINK_ReadMemEx(0x20000100, 0x4 Bytes, Flags = 0x02000000)
T42F8 312:530.080    -- Read from C cache (4 bytes @ 0x20000100)
T42F8 312:530.112   Data:  00 00 00 00
T42F8 312:530.112 - 0.025ms returns 4 (0x4)
T42F8 312:530.112 JLINK_ReadMemEx(0x20000104, 0x1 Bytes, Flags = 0x02000000)
T42F8 312:530.112    -- Read from C cache (1 bytes @ 0x20000104)
T42F8 312:530.112   Data:  00
T42F8 312:530.112 - 0.026ms returns 1 (0x1)
T42F8 312:530.144 JLINK_ReadMemEx(0x20000108, 0x4 Bytes, Flags = 0x02000000)
T42F8 312:530.144    -- Read from C cache (4 bytes @ 0x20000108)
T42F8 312:530.144   Data:  00 00 00 00
T42F8 312:530.176 - 0.026ms returns 4 (0x4)
T42F8 312:541.184 JLINK_ReadMemEx(0x200000F8, 0x2 Bytes, Flags = 0x02000000)
T42F8 312:541.248    -- Read from C cache (2 bytes @ 0x200000F8)
T42F8 312:541.248   Data:  00 00
T42F8 312:541.280 - 0.091ms returns 2 (0x2)
T42F8 312:541.280 JLINK_ReadMemEx(0x200000FC, 0x4 Bytes, Flags = 0x02000000)
T42F8 312:541.312    -- Read from C cache (4 bytes @ 0x200000FC)
T42F8 312:541.312   Data:  00 00 00 00
T42F8 312:541.344 - 0.041ms returns 4 (0x4)
T42F8 312:541.376 JLINK_ReadMemEx(0x20000100, 0x4 Bytes, Flags = 0x02000000)
T42F8 312:541.376    -- Read from C cache (4 bytes @ 0x20000100)
T42F8 312:541.376   Data:  00 00 00 00
T42F8 312:541.376 - 0.030ms returns 4 (0x4)
T42F8 312:541.376 JLINK_ReadMemEx(0x20000104, 0x1 Bytes, Flags = 0x02000000)
T42F8 312:541.376    -- Read from C cache (1 bytes @ 0x20000104)
T42F8 312:541.408   Data:  00
T42F8 312:541.408 - 0.027ms returns 1 (0x1)
T42F8 312:541.408 JLINK_ReadMemEx(0x20000108, 0x4 Bytes, Flags = 0x02000000)
T42F8 312:541.440    -- Read from C cache (4 bytes @ 0x20000108)
T42F8 312:541.440   Data:  00 00 00 00
T42F8 312:541.472 - 0.027ms returns 4 (0x4)
T42F8 313:249.728 JLINK_ReadMemEx(0x200000F8, 0x2 Bytes, Flags = 0x02000000)
T42F8 313:249.824    -- Read from C cache (2 bytes @ 0x200000F8)
T42F8 313:249.824   Data:  00 00
T42F8 313:249.856 - 0.083ms returns 2 (0x2)
T42F8 313:249.856 JLINK_ReadMemEx(0x200000FC, 0x4 Bytes, Flags = 0x02000000)
T42F8 313:249.856    -- Read from C cache (4 bytes @ 0x200000FC)
T42F8 313:249.856   Data:  00 00 00 00
T42F8 313:249.856 - 0.027ms returns 4 (0x4)
T42F8 313:249.888 JLINK_ReadMemEx(0x20000100, 0x4 Bytes, Flags = 0x02000000)
T42F8 313:249.888    -- Read from C cache (4 bytes @ 0x20000100)
T42F8 313:249.888   Data:  00 00 00 00
T42F8 313:249.920 - 0.026ms returns 4 (0x4)
T42F8 313:249.920 JLINK_ReadMemEx(0x20000104, 0x1 Bytes, Flags = 0x02000000)
T42F8 313:249.920    -- Read from C cache (1 bytes @ 0x20000104)
T42F8 313:249.952   Data:  00
T42F8 313:249.952 - 0.029ms returns 1 (0x1)
T42F8 313:249.984 JLINK_ReadMemEx(0x20000108, 0x4 Bytes, Flags = 0x02000000)
T42F8 313:249.984    -- Read from C cache (4 bytes @ 0x20000108)
T42F8 313:249.984   Data:  00 00 00 00
T42F8 313:249.984 - 0.039ms returns 4 (0x4)
T42F8 314:034.432 JLINK_ReadMemEx(0x2000010C, 0x2 Bytes, Flags = 0x02000000)
T42F8 314:034.496    -- Read from C cache (2 bytes @ 0x2000010C)
T42F8 314:034.528   Data:  CD 0C
T42F8 314:034.528 - 0.114ms returns 2 (0x2)
T42F8 314:034.560 JLINK_ReadMemEx(0x20000110, 0x4 Bytes, Flags = 0x02000000)
T42F8 314:034.560    -- Read from C cache (4 bytes @ 0x20000110)
T42F8 314:034.560   Data:  BF 00 00 00
T42F8 314:034.592 - 0.027ms returns 4 (0x4)
T42F8 314:034.592 JLINK_ReadMemEx(0x20000114, 0x4 Bytes, Flags = 0x02000000)
T42F8 314:034.592    -- Read from C cache (4 bytes @ 0x20000114)
T42F8 314:034.624   Data:  43 0F 00 00
T42F8 314:034.624 - 0.026ms returns 4 (0x4)
T42F8 314:034.624 JLINK_ReadMemEx(0x20000118, 0x1 Bytes, Flags = 0x02000000)
T42F8 314:034.624    -- Read from C cache (1 bytes @ 0x20000118)
T42F8 314:034.624   Data:  1D
T42F8 314:034.656 - 0.028ms returns 1 (0x1)
T42F8 314:034.656 JLINK_ReadMemEx(0x2000011C, 0x4 Bytes, Flags = 0x02000000)
T42F8 314:034.656    -- Read from C cache (4 bytes @ 0x2000011C)
T42F8 314:034.688   Data:  6D 0F 00 00
T42F8 314:034.688 - 0.027ms returns 4 (0x4)
T42F8 314:034.720 JLINK_ReadMemEx(0x2000010C, 0x2 Bytes, Flags = 0x02000000)
T42F8 314:034.720    -- Read from C cache (2 bytes @ 0x2000010C)
T42F8 314:034.720   Data:  CD 0C
T42F8 314:034.752 - 0.026ms returns 2 (0x2)
T42F8 314:034.752 JLINK_ReadMemEx(0x20000110, 0x4 Bytes, Flags = 0x02000000)
T42F8 314:034.752    -- Read from C cache (4 bytes @ 0x20000110)
T42F8 314:034.752   Data:  BF 00 00 00
T42F8 314:034.752 - 0.026ms returns 4 (0x4)
T42F8 314:034.752 JLINK_ReadMemEx(0x20000114, 0x4 Bytes, Flags = 0x02000000)
T42F8 314:034.784    -- Read from C cache (4 bytes @ 0x20000114)
